; CSV, generated by libsigrok4DSL 0.2.0 on Thu Apr 09 14:56:01 2020
; Channels (3/16)
; Sample rate: 50 MHz
; Sample count: 250.384 M Samples
Time(s), E, D, 2
0,1,0,0
0.00106376,1,1,0
0.00106392,1,0,0
0.00106406,1,1,0
0.0010644,1,0,0
0.0010645,1,1,0
0.00106458,1,0,0
0.00106472,1,1,0
0.00106484,1,0,0
0.0010649,1,1,0
0.001065,1,0,0
0.00106508,1,1,0
0.00106516,1,0,0
0.00106524,1,1,0
0.0010654,1,0,0
0.00106548,1,1,0
0.00106558,1,0,0
0.00106572,1,1,0
0.0010658,0,1,0
0.00106582,0,0,0
0.0010659,0,1,0
0.00106598,0,0,0
0.00106606,0,1,0
0.00106622,0,0,0
0.00106638,0,1,0
0.00106648,0,0,0
0.00106656,0,1,0
0.00106672,0,0,0
0.00106686,0,1,0
0.00106704,0,0,0
0.00106714,0,1,0
0.00106724,0,0,0
0.00106736,0,1,0
0.00106754,0,0,0
0.0010677,0,1,0
0.00106788,0,0,0
0.00106802,0,1,0
0.0010682,0,0,0
0.00106836,0,1,0
0.00106848,0,0,0
0.00106856,0,1,0
0.0010687,0,0,0
0.00106886,0,1,0
0.00106904,0,0,0
0.00106914,0,1,0
0.00106922,0,0,0
0.0010693,0,1,0
0.0010694,0,0,0
0.00106952,0,1,0
0.00106964,0,0,0
0.00106972,0,1,0
0.00106986,0,0,0
0.00106996,0,1,0
0.00107006,0,0,0
0.00107018,0,1,0
0.00107036,0,0,0
0.00107046,0,1,0
0.00107056,0,0,0
0.0010707,0,1,0
0.00107082,0,0,0
0.00107088,0,1,0
0.00107098,0,0,0
0.00107106,0,1,0
0.0010712,0,0,0
0.00107136,0,1,0
0.00107154,0,0,0
0.00107168,0,1,0
0.00107182,0,0,0
0.0010719,0,1,0
0.00107198,0,0,0
0.00107206,0,1,0
0.00107222,0,0,0
0.00107232,0,1,0
0.0010724,0,0,0
0.00107254,0,1,0
0.00107272,0,0,0
0.00107288,0,1,0
0.00107306,0,0,0
0.00107316,0,1,0
0.00107324,0,0,0
0.00107332,0,1,0
0.00107342,0,0,0
0.00107348,0,1,0
0.00107358,0,0,0
0.00107374,0,1,0
0.0010739,0,0,0
0.00107408,0,1,0
0.00107426,0,0,0
0.00107442,0,1,0
0.00107512,1,1,0
0.00107546,1,0,0
0.01497022,1,1,0
0.01497032,1,0,0
0.01497036,1,1,0
0.01497048,1,0,0
0.0149706,1,1,0
0.01497078,1,0,0
0.01497088,1,1,0
0.01497096,1,0,0
0.0149711,1,1,0
0.01497122,1,0,0
0.01497128,1,1,0
0.01497144,1,0,0
0.01497158,1,1,0
0.0149717,1,0,0
0.01497178,1,1,0
0.01497188,1,0,0
0.01497194,1,1,0
0.0149721,1,0,0
0.01497218,1,1,0
0.0149722,0,1,0
0.01497228,0,0,0
0.01497234,0,1,0
0.01497244,0,0,0
0.01497252,0,1,0
0.0149726,0,0,0
0.01497268,0,1,0
0.01497278,0,0,0
0.0149729,0,1,0
0.01497308,0,0,0
0.01497324,0,1,0
0.01497336,0,0,0
0.01497342,0,1,0
0.01497358,0,0,0
0.01497366,0,1,0
0.01497376,0,0,0
0.01497384,0,1,0
0.01497394,0,0,0
0.01497406,0,1,0
0.01497418,0,0,0
0.01497426,0,1,0
0.01497434,0,0,0
0.01497442,0,1,0
0.01497458,0,0,0
0.01497466,0,1,0
0.01497476,0,0,0
0.01497484,0,1,0
0.01497492,0,0,0
0.01497506,0,1,0
0.01497524,0,0,0
0.01497534,0,1,0
0.01497542,0,0,0
0.01497556,0,1,0
0.01497574,0,0,0
0.01497584,0,1,0
0.01497592,0,0,0
0.01497606,0,1,0
0.01497624,0,0,0
0.0149764,0,1,0
0.01497658,0,0,0
0.01497674,0,1,0
0.0149769,0,0,0
0.014977,0,1,0
0.0149771,0,0,0
0.01497722,0,1,0
0.01497734,0,0,0
0.01497742,0,1,0
0.01497752,0,0,0
0.01497758,0,1,0
0.01497768,0,0,0
0.01497776,0,1,0
0.01497792,0,0,0
0.01497806,0,1,0
0.01497824,0,0,0
0.01497834,0,1,0
0.01497844,0,0,0
0.01497856,0,1,0
0.01497868,0,0,0
0.01497876,0,1,0
0.01497886,0,0,0
0.01497892,0,1,0
0.01497902,0,0,0
0.0149791,0,1,0
0.01497918,0,0,0
0.01497926,0,1,0
0.01497942,0,0,0
0.01497956,0,1,0
0.0149797,0,0,0
0.01497976,0,1,0
0.01497986,0,0,0
0.01497994,0,1,0
0.01498008,0,0,0
0.01498018,0,1,0
0.01498028,0,0,0
0.01498036,0,1,0
0.01498044,0,0,0
0.01498052,0,1,0
0.01498062,0,0,0
0.01498068,0,1,0
0.01498078,0,0,0
0.01498086,0,1,0
0.01498096,0,0,0
0.01498108,0,1,0
0.01498126,0,0,0
0.01498136,0,1,0
0.01498146,0,0,0
0.01498154,0,1,0
0.01498164,0,0,0
0.01498178,0,1,0
0.01498188,0,0,0
0.01498246,0,1,0
0.01498274,1,1,0
0.01498312,1,0,0
0.02100024,1,1,0
0.02100044,1,0,0
0.02100054,1,1,0
0.02100064,1,0,0
0.02100072,1,1,0
0.02100086,1,0,0
0.02100104,1,1,0
0.02100114,1,0,0
0.02100122,1,1,0
0.02100138,1,0,0
0.02100146,1,1,0
0.02100154,1,0,0
0.02100168,1,1,0
0.0210018,1,0,0
0.02100188,1,1,0
0.02100196,1,0,0
0.02100204,1,1,0
0.02100212,1,0,0
0.0210022,1,1,0
0.02100234,1,0,0
0.02100244,1,1,0
0.02100254,1,0,0
0.02100268,1,1,0
0.02100278,1,0,0
0.0210028,0,0,0
0.02100286,0,1,0
0.02100296,0,0,0
0.02100302,0,1,0
0.02100318,0,0,0
0.02100334,0,1,0
0.02100344,0,0,0
0.02100352,0,1,0
0.02100368,0,0,0
0.02100382,0,1,0
0.021004,0,0,0
0.0210041,0,1,0
0.02100418,0,0,0
0.02100432,0,1,0
0.0210045,0,0,0
0.02100464,0,1,0
0.02100484,0,0,0
0.02100498,0,1,0
0.02100516,0,0,0
0.02100532,0,1,0
0.02100544,0,0,0
0.02100552,0,1,0
0.02100566,0,0,0
0.02100582,0,1,0
0.021006,0,0,0
0.0210061,0,1,0
0.02100618,0,0,0
0.02100626,0,1,0
0.02100634,0,0,0
0.02100648,0,1,0
0.0210066,0,0,0
0.02100668,0,1,0
0.02100682,0,0,0
0.02100692,0,1,0
0.02100702,0,0,0
0.02100714,0,1,0
0.02100732,0,0,0
0.02100742,0,1,0
0.02100752,0,0,0
0.02100764,0,1,0
0.02100776,0,0,0
0.02100784,0,1,0
0.02100794,0,0,0
0.02100802,0,1,0
0.02100816,0,0,0
0.02100832,0,1,0
0.0210085,0,0,0
0.02100864,0,1,0
0.02100878,0,0,0
0.02100884,0,1,0
0.02100894,0,0,0
0.02100902,0,1,0
0.02100916,0,0,0
0.02100926,0,1,0
0.02100936,0,0,0
0.0210095,0,1,0
0.02100968,0,0,0
0.02100984,0,1,0
0.02101002,0,0,0
0.0210101,0,1,0
0.0210102,0,0,0
0.02101028,0,1,0
0.02101038,0,0,0
0.02101044,0,1,0
0.02101054,0,0,0
0.02101068,0,1,0
0.02101086,0,0,0
0.02101102,0,1,0
0.0210112,0,0,0
0.02101134,0,1,0
0.02101166,0,0,0
0.02101174,0,1,0
0.02101202,0,0,0
0.02101258,1,0,0
0.0210126,1,1,0
0.02101368,1,0,0
0.03490698,1,1,0
0.03490754,1,0,0
0.03490762,1,1,0
0.03490772,1,0,0
0.03490786,1,1,0
0.03490796,1,0,0
0.03490804,1,1,0
0.03490812,1,0,0
0.0349082,1,1,0
0.0349083,1,0,0
0.03490836,1,1,0
0.03490852,1,0,0
0.03490862,1,1,0
0.0349087,1,0,0
0.03490884,1,1,0
0.03490896,1,0,0
0.03490902,1,1,0
0.03490912,1,0,0
0.03490918,1,1,0
0.03490934,1,0,0
0.03490944,1,1,0
0.03490954,1,0,0
0.03490964,0,0,0
0.03490966,0,1,0
0.03490978,0,0,0
0.03490986,0,1,0
0.03490994,0,0,0
0.03491002,0,1,0
0.03491012,0,0,0
0.03491018,0,1,0
0.03491034,0,0,0
0.03491042,0,1,0
0.03491052,0,0,0
0.0349106,0,1,0
0.03491068,0,0,0
0.03491082,0,1,0
0.03491094,0,0,0
0.03491102,0,1,0
0.0349111,0,0,0
0.03491118,0,1,0
0.03491126,0,0,0
0.03491134,0,1,0
0.03491144,0,0,0
0.0349115,0,1,0
0.0349116,0,0,0
0.03491168,0,1,0
0.03491182,0,0,0
0.03491192,0,1,0
0.03491202,0,0,0
0.03491214,0,1,0
0.03491232,0,0,0
0.03491248,0,1,0
0.03491266,0,0,0
0.03491282,0,1,0
0.03491298,0,0,0
0.03491314,0,1,0
0.03491326,0,0,0
0.03491334,0,1,0
0.03491348,0,0,0
0.03491358,0,1,0
0.03491368,0,0,0
0.03491376,0,1,0
0.03491384,0,0,0
0.03491396,0,1,0
0.0349141,0,0,0
0.03491418,0,1,0
0.03491432,0,0,0
0.03491442,0,1,0
0.03491452,0,0,0
0.03491458,0,1,0
0.03491468,0,0,0
0.03491476,0,1,0
0.03491484,0,0,0
0.03491498,0,1,0
0.0349151,0,0,0
0.03491518,0,1,0
0.03491532,0,0,0
0.03491548,0,1,0
0.03491566,0,0,0
0.03491576,0,1,0
0.03491586,0,0,0
0.03491592,0,1,0
0.03491602,0,0,0
0.0349161,0,1,0
0.03491618,0,0,0
0.03491626,0,1,0
0.03491636,0,0,0
0.03491644,0,1,0
0.03491652,0,0,0
0.0349166,0,1,0
0.0349167,0,0,0
0.03491676,0,1,0
0.03491686,0,0,0
0.034917,0,1,0
0.03491718,0,0,0
0.03491732,0,1,0
0.0349175,0,0,0
0.0349176,0,1,0
0.0349177,0,0,0
0.03491784,0,1,0
0.03491802,0,0,0
0.03491818,0,1,0
0.03491834,0,0,0
0.03491844,0,1,0
0.03491854,0,0,0
0.0349186,0,1,0
0.03491872,0,0,0
0.03491878,0,1,0
0.0349189,0,0,0
0.03491896,0,1,0
0.03491906,0,0,0
0.0349192,0,1,0
0.03491936,0,0,0
0.03491946,0,1,0
0.03491958,0,0,0
0.0349197,0,1,0
0.03491988,0,0,0
0.03492052,1,0,0
0.04093812,1,1,0
0.0409383,1,0,0
0.04093846,1,1,0
0.04093862,1,0,0
0.04093878,1,1,0
0.04093888,1,0,0
0.04093896,1,1,0
0.0409391,1,0,0
0.0409392,1,1,0
0.0409393,1,0,0
0.04093944,1,1,0
0.04093954,1,0,0
0.04093962,1,1,0
0.04093978,1,0,0
0.04093992,1,1,0
0.04094004,1,0,0
0.04094012,1,1,0
0.04094016,0,1,0
0.04094026,0,0,0
0.04094042,0,1,0
0.04094054,0,0,0
0.0409406,0,1,0
0.0409407,0,0,0
0.04094076,0,1,0
0.04094086,0,0,0
0.04094094,0,1,0
0.04094108,0,0,0
0.04094124,0,1,0
0.04094142,0,0,0
0.04094156,0,1,0
0.04094174,0,0,0
0.04094184,0,1,0
0.04094194,0,0,0
0.04094208,0,1,0
0.04094218,0,0,0
0.04094226,0,1,0
0.04094242,0,0,0
0.04094258,0,1,0
0.04094274,0,0,0
0.0409429,0,1,0
0.04094308,0,0,0
0.04094324,0,1,0
0.04094334,0,0,0
0.04094342,0,1,0
0.04094358,0,0,0
0.04094374,0,1,0
0.04094392,0,0,0
0.04094402,0,1,0
0.0409441,0,0,0
0.04094418,0,1,0
0.04094426,0,0,0
0.04094434,0,1,0
0.04094444,0,0,0
0.04094452,0,1,0
0.0409446,0,0,0
0.04094468,0,1,0
0.04094476,0,0,0
0.04094484,0,1,0
0.04094494,0,0,0
0.04094506,0,1,0
0.04094518,0,0,0
0.04094526,0,1,0
0.04094536,0,0,0
0.04094542,0,1,0
0.04094552,0,0,0
0.0409456,0,1,0
0.04094568,0,0,0
0.04094576,0,1,0
0.04094586,0,0,0
0.04094594,0,1,0
0.04094602,0,0,0
0.0409461,0,1,0
0.04094626,0,0,0
0.04094638,0,1,0
0.04094654,0,0,0
0.0409466,0,1,0
0.0409467,0,0,0
0.04094676,0,1,0
0.04094692,0,0,0
0.04094702,0,1,0
0.04094712,0,0,0
0.0409472,0,1,0
0.04094728,0,0,0
0.04094736,0,1,0
0.04094746,0,0,0
0.04094752,0,1,0
0.04094762,0,0,0
0.04094776,0,1,0
0.04094788,0,0,0
0.04094796,0,1,0
0.0409481,0,0,0
0.0409482,0,1,0
0.0409483,0,0,0
0.04094836,0,1,0
0.04094848,0,0,0
0.04094854,0,1,0
0.04094866,0,0,0
0.04094874,0,1,0
0.04094882,0,0,0
0.04094896,0,1,0
0.04094962,1,1,0
0.04094998,1,0,0
0.05484476,1,1,0
0.05484488,1,0,0
0.05484498,1,1,0
0.05484508,1,0,0
0.05484522,1,1,0
0.05484532,1,0,0
0.0548454,1,1,0
0.05484548,1,0,0
0.05484554,1,1,0
0.05484564,1,0,0
0.05484572,1,1,0
0.05484588,1,0,0
0.05484598,1,1,0
0.05484606,1,0,0
0.0548462,1,1,0
0.05484632,1,0,0
0.05484638,1,1,0
0.05484648,1,0,0
0.05484654,1,1,0
0.0548467,1,0,0
0.0548468,1,1,0
0.05484688,1,0,0
0.05484692,0,0,0
0.05484702,0,1,0
0.05484714,0,0,0
0.05484722,0,1,0
0.0548473,0,0,0
0.05484738,0,1,0
0.05484746,0,0,0
0.05484754,0,1,0
0.05484768,0,0,0
0.05484778,0,1,0
0.05484788,0,0,0
0.05484794,0,1,0
0.05484804,0,0,0
0.05484818,0,1,0
0.05484828,0,0,0
0.05484836,0,1,0
0.05484846,0,0,0
0.05484852,0,1,0
0.05484862,0,0,0
0.0548487,0,1,0
0.05484878,0,0,0
0.05484886,0,1,0
0.05484896,0,0,0
0.05484902,0,1,0
0.05484918,0,0,0
0.05484928,0,1,0
0.05484936,0,0,0
0.0548495,0,1,0
0.05484968,0,0,0
0.05484984,0,1,0
0.05485,0,0,0
0.05485016,0,1,0
0.05485034,0,0,0
0.0548505,0,1,0
0.05485062,0,0,0
0.0548507,0,1,0
0.05485084,0,0,0
0.05485094,0,1,0
0.05485104,0,0,0
0.0548511,0,1,0
0.0548512,0,0,0
0.05485132,0,1,0
0.05485146,0,0,0
0.05485152,0,1,0
0.05485168,0,0,0
0.05485178,0,1,0
0.05485186,0,0,0
0.05485194,0,1,0
0.05485204,0,0,0
0.0548521,0,1,0
0.0548522,0,0,0
0.05485234,0,1,0
0.05485246,0,0,0
0.05485252,0,1,0
0.05485268,0,0,0
0.05485284,0,1,0
0.05485302,0,0,0
0.0548531,0,1,0
0.0548532,0,0,0
0.05485328,0,1,0
0.05485338,0,0,0
0.05485344,0,1,0
0.05485354,0,0,0
0.05485362,0,1,0
0.0548537,0,0,0
0.05485378,0,1,0
0.05485388,0,0,0
0.05485394,0,1,0
0.05485404,0,0,0
0.05485412,0,1,0
0.05485422,0,0,0
0.05485434,0,1,0
0.05485452,0,0,0
0.05485468,0,1,0
0.05485486,0,0,0
0.05485496,0,1,0
0.05485506,0,0,0
0.0548552,0,1,0
0.05485536,0,0,0
0.05485552,0,1,0
0.0548557,0,0,0
0.0548558,0,1,0
0.0548559,0,0,0
0.05485596,0,1,0
0.05485606,0,0,0
0.05485612,0,1,0
0.05485626,0,0,0
0.05485632,0,1,0
0.05485642,0,0,0
0.05485654,0,1,0
0.05485672,0,0,0
0.05485682,0,1,0
0.0548569,0,0,0
0.05485706,0,1,0
0.05485724,0,0,0
0.05485784,1,0,0
0.06087498,1,1,0
0.06087526,1,0,0
0.06087552,1,1,0
0.06087564,1,0,0
0.0608758,1,1,0
0.06087598,1,0,0
0.06087614,1,1,0
0.06087624,1,0,0
0.06087632,1,1,0
0.06087648,1,0,0
0.06087656,1,1,0
0.06087664,1,0,0
0.06087678,1,1,0
0.0608769,1,0,0
0.06087698,1,1,0
0.06087712,1,0,0
0.06087728,1,1,0
0.0608774,1,0,0
0.06087746,1,1,0
0.0608775,0,1,0
0.06087762,0,0,0
0.06087778,0,1,0
0.06087788,0,0,0
0.06087796,0,1,0
0.06087806,0,0,0
0.06087812,0,1,0
0.06087822,0,0,0
0.06087828,0,1,0
0.06087844,0,0,0
0.0608786,0,1,0
0.06087878,0,0,0
0.06087892,0,1,0
0.0608791,0,0,0
0.0608792,0,1,0
0.0608793,0,0,0
0.06087942,0,1,0
0.06087954,0,0,0
0.06087962,0,1,0
0.06087976,0,0,0
0.06087992,0,1,0
0.0608801,0,0,0
0.06088026,0,1,0
0.06088044,0,0,0
0.0608806,0,1,0
0.0608807,0,0,0
0.06088078,0,1,0
0.06088094,0,0,0
0.0608811,0,1,0
0.06088126,0,0,0
0.06088136,0,1,0
0.06088146,0,0,0
0.06088154,0,1,0
0.06088162,0,0,0
0.0608817,0,1,0
0.06088178,0,0,0
0.06088186,0,1,0
0.06088196,0,0,0
0.06088204,0,1,0
0.06088212,0,0,0
0.0608822,0,1,0
0.06088228,0,0,0
0.06088242,0,1,0
0.06088254,0,0,0
0.06088262,0,1,0
0.0608827,0,0,0
0.06088278,0,1,0
0.06088288,0,0,0
0.06088296,0,1,0
0.06088304,0,0,0
0.06088312,0,1,0
0.0608832,0,0,0
0.06088328,0,1,0
0.06088338,0,0,0
0.06088346,0,1,0
0.0608836,0,0,0
0.06088376,0,1,0
0.06088388,0,0,0
0.06088396,0,1,0
0.06088406,0,0,0
0.06088412,0,1,0
0.06088428,0,0,0
0.06088438,0,1,0
0.06088448,0,0,0
0.06088454,0,1,0
0.06088464,0,0,0
0.06088472,0,1,0
0.06088482,0,0,0
0.06088488,0,1,0
0.06088498,0,0,0
0.06088512,0,1,0
0.06088524,0,0,0
0.0608853,0,1,0
0.06088546,0,0,0
0.06088556,0,1,0
0.06088564,0,0,0
0.06088572,0,1,0
0.06088582,0,0,0
0.0608859,0,1,0
0.060886,0,0,0
0.06088608,0,1,0
0.06088616,0,0,0
0.06088632,0,1,0
0.06088642,0,0,0
0.06088666,0,1,0
0.06088702,1,1,0
0.06088738,1,0,0
0.07478184,1,1,0
0.07478216,1,0,0
0.07478226,1,1,0
0.07478236,1,0,0
0.0747825,1,1,0
0.07478262,1,0,0
0.07478268,1,1,0
0.07478278,1,0,0
0.07478284,1,1,0
0.07478294,1,0,0
0.07478302,1,1,0
0.07478316,1,0,0
0.07478326,1,1,0
0.07478334,1,0,0
0.07478348,1,1,0
0.0747836,1,0,0
0.07478366,1,1,0
0.07478376,1,0,0
0.07478384,1,1,0
0.07478398,1,0,0
0.07478408,0,1,0
0.07478418,0,0,0
0.07478432,0,1,0
0.07478442,0,0,0
0.0747845,0,1,0
0.07478458,0,0,0
0.07478466,0,1,0
0.07478476,0,0,0
0.07478482,0,1,0
0.07478498,0,0,0
0.07478506,0,1,0
0.07478516,0,0,0
0.07478524,0,1,0
0.07478534,0,0,0
0.07478546,0,1,0
0.07478558,0,0,0
0.07478566,0,1,0
0.07478574,0,0,0
0.07478582,0,1,0
0.07478592,0,0,0
0.07478598,0,1,0
0.07478608,0,0,0
0.07478616,0,1,0
0.07478624,0,0,0
0.07478632,0,1,0
0.07478646,0,0,0
0.07478656,0,1,0
0.07478666,0,0,0
0.07478678,0,1,0
0.07478696,0,0,0
0.07478714,0,1,0
0.0747873,0,0,0
0.07478746,0,1,0
0.07478762,0,0,0
0.0747878,0,1,0
0.0747879,0,0,0
0.07478798,0,1,0
0.07478814,0,0,0
0.07478824,0,1,0
0.07478832,0,0,0
0.0747884,0,1,0
0.07478848,0,0,0
0.07478862,0,1,0
0.07478874,0,0,0
0.07478882,0,1,0
0.07478896,0,0,0
0.07478906,0,1,0
0.07478916,0,0,0
0.07478924,0,1,0
0.07478932,0,0,0
0.0747894,0,1,0
0.0747895,0,0,0
0.07478962,0,1,0
0.07478974,0,0,0
0.07478982,0,1,0
0.07478998,0,0,0
0.07479012,0,1,0
0.0747903,0,0,0
0.0747904,0,1,0
0.0747905,0,0,0
0.07479056,0,1,0
0.07479066,0,0,0
0.07479074,0,1,0
0.07479084,0,0,0
0.0747909,0,1,0
0.074791,0,0,0
0.07479108,0,1,0
0.07479116,0,0,0
0.07479124,0,1,0
0.07479134,0,0,0
0.0747914,0,1,0
0.0747915,0,0,0
0.07479164,0,1,0
0.0747918,0,0,0
0.07479198,0,1,0
0.07479216,0,0,0
0.07479224,0,1,0
0.07479234,0,0,0
0.07479248,0,1,0
0.07479266,0,0,0
0.07479282,0,1,0
0.074793,0,0,0
0.0747931,0,1,0
0.07479318,0,0,0
0.07479326,0,1,0
0.07479336,0,0,0
0.07479342,0,1,0
0.07479352,0,0,0
0.0747936,0,1,0
0.0747937,0,0,0
0.07479384,0,1,0
0.07479402,0,0,0
0.07479412,0,1,0
0.07479454,0,0,0
0.0747947,0,1,0
0.07479512,1,1,0
0.0747952,1,0,0
0.08081226,1,1,0
0.0808127,1,0,0
0.08081278,1,1,0
0.08081294,1,0,0
0.0808131,1,1,0
0.08081326,1,0,0
0.08081342,1,1,0
0.08081354,1,0,0
0.0808136,1,1,0
0.08081376,1,0,0
0.08081384,1,1,0
0.08081394,1,0,0
0.08081408,1,1,0
0.0808142,1,0,0
0.08081426,1,1,0
0.08081442,1,0,0
0.08081456,0,1,0
0.08081468,0,0,0
0.08081476,0,1,0
0.0808149,0,0,0
0.08081506,0,1,0
0.08081518,0,0,0
0.08081524,0,1,0
0.08081534,0,0,0
0.08081542,0,1,0
0.0808155,0,0,0
0.08081558,0,1,0
0.08081572,0,0,0
0.08081588,0,1,0
0.08081606,0,0,0
0.08081622,0,1,0
0.0808164,0,0,0
0.0808165,0,1,0
0.08081658,0,0,0
0.08081672,0,1,0
0.08081684,0,0,0
0.0808169,0,1,0
0.08081706,0,0,0
0.08081722,0,1,0
0.0808174,0,0,0
0.08081756,0,1,0
0.08081772,0,0,0
0.08081788,0,1,0
0.080818,0,0,0
0.08081808,0,1,0
0.08081822,0,0,0
0.0808184,0,1,0
0.08081856,0,0,0
0.08081866,0,1,0
0.08081874,0,0,0
0.08081882,0,1,0
0.08081892,0,0,0
0.08081898,0,1,0
0.08081908,0,0,0
0.08081916,0,1,0
0.08081924,0,0,0
0.08081932,0,1,0
0.08081942,0,0,0
0.0808195,0,1,0
0.08081958,0,0,0
0.08081972,0,1,0
0.08081984,0,0,0
0.0808199,0,1,0
0.08082,0,0,0
0.08082008,0,1,0
0.08082016,0,0,0
0.08082024,0,1,0
0.08082034,0,0,0
0.0808204,0,1,0
0.0808205,0,0,0
0.08082058,0,1,0
0.08082066,0,0,0
0.08082074,0,1,0
0.0808209,0,0,0
0.08082104,0,1,0
0.08082118,0,0,0
0.08082124,0,1,0
0.08082134,0,0,0
0.08082142,0,1,0
0.08082158,0,0,0
0.08082166,0,1,0
0.08082176,0,0,0
0.08082184,0,1,0
0.08082194,0,0,0
0.080822,0,1,0
0.0808221,0,0,0
0.08082218,0,1,0
0.08082228,0,0,0
0.08082242,0,1,0
0.08082254,0,0,0
0.0808226,0,1,0
0.08082276,0,0,0
0.08082286,0,1,0
0.08082294,0,0,0
0.08082302,0,1,0
0.08082312,0,0,0
0.08082318,0,1,0
0.08082328,0,0,0
0.08082338,0,1,0
0.08082346,0,0,0
0.0808236,0,1,0
0.08082372,0,0,0
0.08082432,1,0,0
0.08082444,1,1,0
0.08082496,1,0,0
0.09471824,1,1,0
0.09471856,1,0,0
0.09471872,1,1,0
0.0947189,1,0,0
0.09471898,1,1,0
0.09471908,1,0,0
0.09471914,1,1,0
0.09471924,1,0,0
0.0947193,1,1,0
0.0947194,1,0,0
0.09471954,1,1,0
0.09471972,1,0,0
0.0947198,1,1,0
0.0947199,1,0,0
0.09472002,1,1,0
0.09472016,1,0,0
0.09472022,1,1,0
0.09472038,1,0,0
0.09472054,1,1,0
0.09472064,1,0,0
0.09472072,1,1,0
0.0947208,1,0,0
0.09472088,1,1,0
0.09472092,0,1,0
0.09472102,0,0,0
0.09472112,0,1,0
0.09472122,0,0,0
0.09472128,0,1,0
0.09472138,0,0,0
0.09472146,0,1,0
0.09472154,0,0,0
0.09472162,0,1,0
0.09472172,0,0,0
0.09472184,0,1,0
0.09472202,0,0,0
0.09472218,0,1,0
0.0947223,0,0,0
0.09472236,0,1,0
0.09472252,0,0,0
0.09472262,0,1,0
0.0947227,0,0,0
0.09472278,0,1,0
0.09472286,0,0,0
0.094723,0,1,0
0.09472312,0,0,0
0.0947232,0,1,0
0.09472328,0,0,0
0.09472336,0,1,0
0.09472352,0,0,0
0.0947236,0,1,0
0.0947237,0,0,0
0.09472378,0,1,0
0.09472386,0,0,0
0.09472398,0,1,0
0.09472416,0,0,0
0.09472428,0,1,0
0.09472436,0,0,0
0.0947245,0,1,0
0.09472468,0,0,0
0.09472478,0,1,0
0.09472486,0,0,0
0.094725,0,1,0
0.09472518,0,0,0
0.09472534,0,1,0
0.0947255,0,0,0
0.09472568,0,1,0
0.09472584,0,0,0
0.09472594,0,1,0
0.09472604,0,0,0
0.09472616,0,1,0
0.09472628,0,0,0
0.09472636,0,1,0
0.09472644,0,0,0
0.09472652,0,1,0
0.09472662,0,0,0
0.0947267,0,1,0
0.09472684,0,0,0
0.094727,0,1,0
0.09472718,0,0,0
0.09472728,0,1,0
0.09472738,0,0,0
0.0947275,0,1,0
0.09472762,0,0,0
0.0947277,0,1,0
0.0947278,0,0,0
0.09472786,0,1,0
0.09472796,0,0,0
0.09472804,0,1,0
0.09472812,0,0,0
0.0947282,0,1,0
0.09472836,0,0,0
0.09472848,0,1,0
0.09472864,0,0,0
0.0947287,0,1,0
0.0947288,0,0,0
0.09472886,0,1,0
0.09472904,0,0,0
0.09472912,0,1,0
0.09472922,0,0,0
0.0947293,0,1,0
0.09472938,0,0,0
0.09472946,0,1,0
0.09472956,0,0,0
0.09472962,0,1,0
0.09472972,0,0,0
0.0947298,0,1,0
0.09472988,0,0,0
0.09473004,0,1,0
0.0947302,0,0,0
0.0947303,0,1,0
0.0947304,0,0,0
0.09473046,0,1,0
0.09473056,0,0,0
0.09473072,0,1,0
0.09473084,0,0,0
0.09473108,0,1,0
0.09473116,0,0,0
0.09473124,0,1,0
0.09473152,0,0,0
0.09473186,1,0,0
0.10074916,1,1,0
0.10074934,1,0,0
0.10074948,1,1,0
0.1007498,1,0,0
0.10074998,1,1,0
0.10075008,1,0,0
0.10075014,1,1,0
0.1007503,1,0,0
0.1007504,1,1,0
0.10075048,1,0,0
0.10075062,1,1,0
0.10075074,1,0,0
0.1007508,1,1,0
0.1007509,1,0,0
0.10075098,1,1,0
0.10075106,1,0,0
0.10075114,1,1,0
0.1007513,1,0,0
0.10075138,1,1,0
0.10075148,1,0,0
0.10075162,0,1,0
0.10075174,0,0,0
0.1007518,0,1,0
0.1007519,0,0,0
0.10075196,0,1,0
