; CSV, generated by libsigrok4DSL 0.2.0 on Thu Apr 09 14:54:36 2020
; Channels (3/16)
; Sample rate: 50 MHz
; Sample count: 250.384 M Samples
Time(s), E, D, 2
0,1,0,0
0.01113958,1,1,0
0.01113976,1,0,0
0.01113988,1,1,0
0.01114022,1,0,0
0.0111403,1,1,0
0.0111404,1,0,0
0.01114056,1,1,0
0.01114068,1,0,0
0.01114076,1,1,0
0.01114084,1,0,0
0.0111409,1,1,0
0.01114106,1,0,0
0.01114116,1,1,0
0.01114124,1,0,0
0.01114132,1,1,0
0.01114142,1,0,0
0.01114154,1,1,0
0.01114166,1,0,0
0.01114172,1,1,0
0.01114188,1,0,0
0.01114204,1,1,0
0.01114222,1,0,0
0.0111423,1,1,0
0.01114234,0,1,0
0.0111424,0,0,0
0.01114254,0,1,0
0.01114264,0,0,0
0.01114272,0,1,0
0.01114288,0,0,0
0.01114296,0,1,0
0.01114306,0,0,0
0.01114318,0,1,0
0.01114336,0,0,0
0.01114352,0,1,0
0.0111437,0,0,0
0.0111438,0,1,0
0.01114388,0,0,0
0.01114402,0,1,0
0.0111442,0,0,0
0.0111443,0,1,0
0.01114438,0,0,0
0.01114452,0,1,0
0.0111447,0,0,0
0.01114486,0,1,0
0.01114496,0,0,0
0.01114504,0,1,0
0.0111452,0,0,0
0.0111453,0,1,0
0.01114538,0,0,0
0.01114546,0,1,0
0.01114554,0,0,0
0.01114562,0,1,0
0.0111457,0,0,0
0.0111458,0,1,0
0.01114588,0,0,0
0.01114604,0,1,0
0.01114612,0,0,0
0.0111462,0,1,0
0.0111463,0,0,0
0.01114638,0,1,0
0.01114654,0,0,0
0.0111467,0,1,0
0.01114686,0,0,0
0.01114704,0,1,0
0.0111472,0,0,0
0.0111473,0,1,0
0.01114738,0,0,0
0.01114746,0,1,0
0.01114754,0,0,0
0.0111477,0,1,0
0.01114786,0,0,0
0.01114796,0,1,0
0.01114804,0,0,0
0.0111482,0,1,0
0.0111483,0,0,0
0.01114838,0,1,0
0.01114846,0,0,0
0.01114854,0,1,0
0.01114862,0,0,0
0.0111487,0,1,0
0.0111488,0,0,0
0.01114888,0,1,0
0.01114904,0,0,0
0.0111492,0,1,0
0.01114936,0,0,0
0.01114954,0,1,0
0.01114962,0,0,0
0.0111497,0,1,0
0.0111498,0,0,0
0.01114988,0,1,0
0.01115004,0,0,0
0.01115012,0,1,0
0.0111502,0,0,0
0.01115036,0,1,0
0.01115046,0,0,0
0.01115054,0,1,0
0.01115062,0,0,0
0.0111507,0,1,0
0.01115086,0,0,0
0.01115104,0,1,0
0.01115112,0,0,0
0.0111512,0,1,0
0.01115136,0,0,0
0.01115154,0,1,0
0.0111517,0,0,0
0.0111518,0,1,0
0.01115188,0,0,0
0.01115196,0,1,0
0.01115204,0,0,0
0.01115218,0,1,0
0.0111523,0,0,0
0.01115238,0,1,0
0.01115246,0,0,0
0.01115254,0,1,0
0.01115268,0,0,0
0.01115286,0,1,0
0.01115296,0,0,0
0.01115304,0,1,0
0.0111532,0,0,0
0.01115334,0,1,0
0.01115354,0,0,0
0.01115362,0,1,0
0.01115372,0,0,0
0.0111538,0,1,0
0.0111539,0,0,0
0.01115404,0,1,0
0.01115422,0,0,0
0.0111543,0,1,0
0.0111544,0,0,0
0.01115448,0,1,0
0.01115458,0,0,0
0.0111547,0,1,0
0.01115484,0,0,0
0.0111549,0,1,0
0.01115506,0,0,0
0.01115522,0,1,0
0.01115534,0,0,0
0.01115542,0,1,0
0.01115552,0,0,0
0.01115558,0,1,0
0.01115574,0,0,0
0.01115592,0,1,0
0.01115606,0,0,0
0.01115618,0,1,0
0.01115626,0,0,0
0.01115634,0,1,0
0.01115646,0,0,0
0.0111565,0,1,0
0.01115676,0,0,0
0.01115708,0,1,0
0.01115712,1,1,0
0.0111576,1,0,0
0.01115774,1,1,0
0.01115806,1,0,0
0.01115864,1,1,0
0.01115876,1,0,0
0.01115888,1,1,0
0.01115924,1,0,0
0.01116026,1,1,0
0.01116044,1,0,0
0.01116126,1,1,0
0.01116192,1,0,0
0.01116274,1,1,0
0.01116318,1,0,0
0.0111639,1,1,0
0.01116474,1,0,0
0.01116492,1,1,0
0.0111651,1,0,0
0.01116642,1,1,0
0.0111666,1,0,0
0.01116708,1,1,0
0.01116742,1,0,0
0.0111675,1,1,0
0.01116784,1,0,0
0.0111685,1,1,0
0.0111696,1,0,0
0.01117012,1,1,0
0.01117058,1,0,0
0.01117076,1,1,0
0.011171,1,0,0
0.01117156,1,1,0
0.01117176,1,0,0
0.01117188,1,1,0
0.01117224,1,0,0
0.01117258,1,1,0
0.01117326,1,0,0
0.0111734,1,1,0
0.01117358,1,0,0
0.01117374,1,1,0
0.01117392,1,0,0
0.0111744,1,1,0
0.0111746,1,0,0
0.01117472,1,1,0
0.01117492,1,0,0
0.0111756,1,1,0
0.01117598,1,0,0
0.01117606,1,1,0
0.01117626,1,0,0
0.01117698,1,1,0
0.01117774,1,0,0
0.01117842,1,1,0
0.01117926,1,0,0
0.01117978,1,1,0
0.01117998,1,0,0
0.01118008,1,1,0
0.01118042,1,0,0
0.01118292,1,1,0
0.0111836,1,0,0
0.0111843,1,1,0
0.0111854,1,0,0
0.01709924,1,1,0
0.01709982,1,0,0
0.01710024,1,1,0
0.01710066,1,0,0
0.01710074,1,1,0
0.01710092,1,0,0
0.01710544,1,1,0
0.01710556,1,0,0
0.0171064,1,1,0
0.01710704,1,0,0
0.01710722,1,1,0
0.01710736,1,0,0
0.0171076,1,1,0
0.01710772,1,0,0
0.01710782,1,1,0
0.01710792,1,0,0
0.01710804,1,1,0
0.01710832,1,0,0
0.01710872,1,1,0
0.0171089,1,0,0
0.01710898,1,1,0
0.01710908,1,0,0
0.01710912,1,1,0
0.01710924,1,0,0
0.01710938,1,1,0
0.01710954,1,0,0
0.01710972,1,1,0
0.0171099,1,0,0
0.01711002,1,1,0
0.01711038,1,0,0
0.01711048,1,1,0
0.0171106,1,0,0
0.0171107,1,1,0
0.01711088,1,0,0
0.01711104,1,1,0
0.01711114,1,0,0
0.01711122,1,1,0
0.01711138,1,0,0
0.01711154,1,1,0
0.01711172,1,0,0
0.01711186,1,1,0
0.0171122,1,0,0
0.01711238,1,1,0
0.01711254,1,0,0
0.01711268,1,1,0
0.01711298,1,0,0
0.01711308,1,1,0
0.01711316,1,0,0
0.01711322,1,1,0
0.01711338,1,0,0
0.01711354,1,1,0
0.01711364,1,0,0
0.0171142,1,1,0
0.01711438,1,0,0
0.01711452,1,1,0
0.01711482,1,0,0
0.01711492,1,1,0
0.01711502,1,0,0
0.0171153,1,1,0
0.0171154,1,0,0
0.01711552,1,1,0
0.01711586,1,0,0
0.01711604,1,1,0
0.0171162,1,0,0
0.0171163,1,1,0
0.0171164,1,0,0
0.01711654,1,1,0
0.0171167,1,0,0
0.0171168,1,1,0
0.0171169,1,0,0
0.01711702,1,1,0
0.01711722,1,0,0
0.01711736,1,1,0
0.01711766,1,0,0
0.01711774,1,1,0
0.01711782,1,0,0
0.01711786,1,1,0
0.01711798,1,0,0
0.01711806,1,1,0
0.0171182,1,0,0
0.01711854,1,1,0
0.01711872,1,0,0
0.01711884,1,1,0
0.01711904,1,0,0
0.01711912,1,1,0
0.01711922,1,0,0
0.01711936,1,1,0
0.01711948,1,0,0
0.01711956,1,1,0
0.0171197,1,0,0
0.0171198,1,1,0
0.01711988,1,0,0
0.01712002,1,1,0
0.0171202,1,0,0
0.01712034,1,1,0
0.01712054,1,0,0
0.01712062,1,1,0
0.01712072,1,0,0
0.01712078,1,1,0
0.01712088,1,0,0
0.01712102,1,1,0
0.0171212,1,0,0
0.01712136,1,1,0
0.01712154,1,0,0
0.01712168,1,1,0
0.01712198,1,0,0
0.01712204,1,1,0
0.01712214,1,0,0
0.0171222,1,1,0
0.01712236,1,0,0
0.01712248,1,1,0
0.01712254,1,0,0
0.01712262,1,1,0
0.01712272,1,0,0
0.01712286,1,1,0
0.01712298,1,0,0
0.01712306,1,1,0
0.0171232,1,0,0
0.01712336,1,1,0
0.0171235,1,0,0
0.01712356,1,1,0
0.0171237,1,0,0
0.0171238,1,1,0
0.0171239,1,0,0
0.01712404,1,1,0
0.0171242,1,0,0
0.0171243,1,1,0
0.0171244,1,0,0
0.01712446,1,1,0
0.01712456,1,0,0
0.01712464,1,1,0
0.01712474,1,0,0
0.01712486,1,1,0
0.01712504,1,0,0
0.01712514,1,1,0
0.01712522,1,0,0
0.01712536,1,1,0
0.0171255,1,0,0
0.01712556,1,1,0
0.0171257,1,0,0
0.0171258,1,1,0
0.01712588,1,0,0
0.01712596,1,1,0
0.01712606,1,0,0
0.01712614,1,1,0
0.01712622,1,0,0
0.01712636,1,1,0
0.01712646,1,0,0
0.01712654,1,1,0
0.0171267,1,0,0
0.0171268,1,1,0
0.01712688,1,0,0
0.01712702,1,1,0
0.01712714,1,0,0
0.0171272,1,1,0
0.0171273,1,0,0
0.01712738,1,1,0
0.01712746,1,0,0
0.01712754,1,1,0
0.0171277,1,0,0
0.01712786,1,1,0
0.01712804,1,0,0
0.01712812,1,1,0
0.01712822,1,0,0
0.01712828,1,1,0
0.0171284,1,0,0
0.01712846,1,1,0
0.01712856,1,0,0
0.01712862,1,1,0
0.01712872,1,0,0
0.0171288,1,1,0
0.01712888,1,0,0
0.01712896,1,1,0
0.01712904,1,0,0
0.01712912,1,1,0
0.0171292,0,1,0
0.01712922,0,0,0
0.01712934,0,1,0
0.01712952,0,0,0
0.01712968,0,1,0
0.01712986,0,0,0
0.01713,0,1,0
0.01713018,0,0,0
0.01713028,0,1,0
0.01713038,0,0,0
0.01713044,0,1,0
0.01713054,0,0,0
0.01713062,0,1,0
0.01713072,0,0,0
0.01713078,0,1,0
0.01713088,0,0,0
0.01713102,0,1,0
0.01713118,0,0,0
0.01713128,0,1,0
0.01713138,0,0,0
0.0171315,0,1,0
0.01713168,0,0,0
0.01713176,0,1,0
0.01713186,0,0,0
0.017132,0,1,0
0.01713218,0,0,0
0.01713226,0,1,0
0.01713236,0,0,0
0.01713242,0,1,0
0.01713252,0,0,0
0.01713266,0,1,0
0.01713276,0,0,0
0.01713284,0,1,0
0.017133,0,0,0
0.0171331,0,1,0
0.01713318,0,0,0
0.01713326,0,1,0
0.01713334,0,0,0
0.01713344,0,1,0
0.01713352,0,0,0
0.01713366,0,1,0
0.01713384,0,0,0
0.017134,0,1,0
0.01713418,0,0,0
0.01713434,0,1,0
0.0171345,0,0,0
0.01713468,0,1,0
0.01713476,0,0,0
0.01713484,0,1,0
0.01713494,0,0,0
0.01713502,0,1,0
0.01713518,0,0,0
0.01713534,0,1,0
0.01713544,0,0,0
0.01713552,0,1,0
0.01713568,0,0,0
0.01713576,0,1,0
0.01713584,0,0,0
0.017136,0,1,0
0.0171361,0,0,0
0.01713618,0,1,0
0.01713626,0,0,0
0.01713634,0,1,0
0.0171365,0,0,0
0.01713668,0,1,0
0.01713684,0,0,0
0.01713694,0,1,0
0.01713702,0,0,0
0.0171371,0,1,0
0.01713718,0,0,0
0.01713734,0,1,0
0.0171375,0,0,0
0.01713768,0,1,0
0.01713784,0,0,0
0.01713794,0,1,0
0.01713802,0,0,0
0.0171381,0,1,0
0.01713818,0,0,0
0.01713826,0,1,0
0.01713834,0,0,0
0.0171385,0,1,0
0.0171386,0,0,0
0.01713868,0,1,0
0.01713884,0,0,0
0.01713894,0,1,0
0.01713902,0,0,0
0.01713916,0,1,0
0.01713934,0,0,0
0.0171395,0,1,0
0.01713968,0,0,0
0.01713984,0,1,0
0.01713994,0,0,0
0.01714002,0,1,0
0.01714016,0,0,0
0.01714026,0,1,0
0.01714034,0,0,0
0.0171405,0,1,0
0.0171406,0,0,0
0.01714068,0,1,0
0.01714082,0,0,0
0.01714094,0,1,0
0.01714102,0,0,0
0.0171411,0,1,0
0.0171412,0,0,0
0.01714132,0,1,0
0.01714144,0,0,0
0.01714152,0,1,0
0.01714162,0,0,0
0.01714168,0,1,0
0.01714178,0,0,0
0.01714186,0,1,0
0.01714196,0,0,0
0.01714202,0,1,0
0.01714218,0,0,0
0.01714234,0,1,0
0.01714252,0,0,0
0.01714266,0,1,0
0.0171428,0,0,0
0.01714286,0,1,0
0.01714302,0,0,0
0.01714318,0,1,0
0.01714336,0,0,0
0.01714352,0,1,0
0.0171437,0,0,0
0.01714378,0,1,0
0.01714388,0,0,0
0.01714396,0,1,0
0.01714406,0,0,0
0.01714418,0,1,0
0.01714436,0,0,0
0.01714446,0,1,0
0.01714454,0,0,0
0.01714462,0,1,0
0.01714472,0,0,0
0.01714478,0,1,0
0.01714488,0,0,0
0.01714496,0,1,0
0.01714506,0,0,0
0.01714512,0,1,0
0.01714522,0,0,0
0.0171453,0,1,0
0.0171454,0,0,0
0.01714546,0,1,0
0.01714556,0,0,0
0.0171457,0,1,0
0.01714588,0,0,0
0.01714602,0,1,0
0.01714616,0,0,0
0.01714624,0,1,0
0.01714638,0,0,0
0.01714648,0,1,0
0.01714656,0,0,0
0.01714664,0,1,0
0.01714674,0,0,0
0.01714686,0,1,0
0.01714704,0,0,0
0.01714716,0,1,0
0.01714724,0,0,0
0.01714738,0,1,0
0.01714756,0,0,0
0.0171479,0,1,0
0.01714806,0,0,0
0.01714814,0,1,0
0.0171482,1,1,0
0.0171485,1,0,0
0.01714904,1,1,0
0.01714954,1,0,0
0.0171497,1,1,0
0.01714982,1,0,0
0.01714992,1,1,0
0.01715002,1,0,0
0.01715024,1,1,0
0.01715038,1,0,0
0.01715052,1,1,0
0.01715082,1,0,0
0.0171509,1,1,0
0.01715106,1,0,0
0.01715116,1,1,0
0.01715124,1,0,0
0.0171513,1,1,0
0.01715154,1,0,0
0.0171522,1,1,0
0.01715284,1,0,0
0.01715354,1,1,0
0.01715388,1,0,0
0.01715404,1,1,0
0.0171543,1,0,0
0.01715474,1,1,0
0.01715492,1,0,0
0.01715502,1,1,0
0.01715536,1,0,0
0.01715552,1,1,0
0.01715566,1,0,0
0.01715574,1,1,0
0.01715588,1,0,0
0.01715606,1,1,0
0.01715616,1,0,0
0.0171562,1,1,0
0.01715638,1,0,0
0.01715654,1,1,0
0.01715672,1,0,0
0.01715704,1,1,0
0.01715716,1,0,0
0.01715726,1,1,0
0.0171574,1,0,0
0.01715804,1,1,0
0.01715826,1,0,0
0.01715836,1,1,0
0.01715858,1,0,0
0.01716222,1,1,0
0.01716288,1,0,0
0.01717556,1,1,0
0.0171761,1,0,0
0.0171901,1,1,0
0.01719122,1,0,0
0.03107678,1,1,0
0.03107686,1,0,0
0.03107692,1,1,0
0.03107728,1,0,0
0.03107782,1,1,0
0.03107816,1,0,0
0.0310783,1,1,0
0.03107848,1,0,0
0.03107864,1,1,0
0.03107876,1,0,0
0.03107884,1,1,0
0.03107898,1,0,0
0.03107908,1,1,0
0.03107918,1,0,0
0.03107924,1,1,0
0.03107934,1,0,0
0.0310794,1,1,0
0.0310795,1,0,0
0.03107958,1,1,0
0.03107962,0,1,0
0.03107966,0,0,0
0.03107974,0,1,0
0.03107982,0,0,0
0.0310799,0,1,0
0.03108,0,0,0
0.03108012,0,1,0
0.03108024,0,0,0
0.03108032,0,1,0
0.0310804,0,0,0
0.03108048,0,1,0
0.03108064,0,0,0
0.03108078,0,1,0
0.0310809,0,0,0
0.03108098,0,1,0
0.03108106,0,0,0
0.03108114,0,1,0
0.0310813,0,0,0
0.03108146,0,1,0
0.03108162,0,0,0
0.03108172,0,1,0
0.0310818,0,0,0
0.03108196,0,1,0
0.03108214,0,0,0
0.0310823,0,1,0
0.03108246,0,0,0
0.03108256,0,1,0
0.03108264,0,0,0
0.0310828,0,1,0
0.03108296,0,0,0
0.03108314,0,1,0
0.0310833,0,0,0
0.03108346,0,1,0
0.03108364,0,0,0
0.03108372,0,1,0
0.0310838,0,0,0
0.03108388,0,1,0
0.03108398,0,0,0
0.03108412,0,1,0
0.03108422,0,0,0
0.0310843,0,1,0
0.03108438,0,0,0
0.03108448,0,1,0
0.03108464,0,0,0
0.0310848,0,1,0
0.03108496,0,0,0
0.03108506,0,1,0
0.03108514,0,0,0
0.03108522,0,1,0
0.0310853,0,0,0
0.03108538,0,1,0
0.03108548,0,0,0
0.03108562,0,1,0
0.03108572,0,0,0
0.0310858,0,1,0
0.03108596,0,0,0
0.03108614,0,1,0
0.0310863,0,0,0
0.03108646,0,1,0
0.03108656,0,0,0
0.03108664,0,1,0
0.0310868,0,0,0
0.0310869,0,1,0
0.03108698,0,0,0
0.03108712,0,1,0
0.0310873,0,0,0
0.0310874,0,1,0
0.03108748,0,0,0
0.03108756,0,1,0
0.03108764,0,0,0
0.03108772,0,1,0
0.0310878,0,0,0
0.03108796,0,1,0
0.03108814,0,0,0
0.03108822,0,1,0
0.0310883,0,0,0
0.03108846,0,1,0
0.03108864,0,0,0
0.03108872,0,1,0
0.0310888,0,0,0
0.03108888,0,1,0
0.03108898,0,0,0
0.03108906,0,1,0
0.03108914,0,0,0
0.03108928,0,1,0
0.0310894,0,0,0
0.03108946,0,1,0
0.03108956,0,0,0
0.03108964,0,1,0
0.03108978,0,0,0
0.0310899,0,1,0
0.03108998,0,0,0
0.0310901,0,1,0
0.03109024,0,0,0
0.0310903,0,1,0
0.0310904,0,0,0
0.03109048,0,1,0
0.03109056,0,0,0
0.03109064,0,1,0
0.03109074,0,0,0
0.03109082,0,1,0
0.03109096,0,0,0
0.03109106,0,1,0
0.03109116,0,0,0
0.03109124,0,1,0
0.03109134,0,0,0
0.03109146,0,1,0
0.03109164,0,0,0
0.0310918,0,1,0
0.03109198,0,0,0
0.03109208,0,1,0
0.03109216,0,0,0
0.03109224,0,1,0
0.03109234,0,0,0
0.03109248,0,1,0
0.0310926,0,0,0
0.03109268,0,1,0
0.03109282,0,0,0
0.03109292,0,1,0
0.03109302,0,0,0
0.03109308,0,1,0
0.0310932,0,0,0
0.03109326,0,1,0
0.03109338,0,0,0
0.03109344,0,1,0
0.03109354,0,0,0
0.03109384,0,1,0
0.03109402,0,0,0
0.03109412,0,1,0
0.0310942,1,1,0
0.03109468,1,0,0
0.0310955,1,1,0
0.0310957,1,0,0
0.03109668,1,1,0
0.031097,1,0,0
0.03109784,1,1,0
0.03109818,1,0,0
0.03109902,1,1,0
0.03109968,1,0,0
0.03110036,1,1,0
0.0311007,1,0,0
0.03110084,1,1,0
0.03110112,1,0,0
0.03110168,1,1,0
0.03110234,1,0,0
0.0311031,1,1,0
0.0311037,1,0,0
0.03110384,1,1,0
0.03110402,1,0,0
0.03110478,1,1,0
0.03110534,1,0,0
0.03110626,1,1,0
0.0311067,1,0,0
0.03110734,1,1,0
0.03110752,1,0,0
0.0311076,1,1,0
0.0311077,1,0,0
0.0311086,1,1,0
0.03110888,1,0,0
0.03110966,1,1,0
0.03111018,1,0,0
0.03111036,1,1,0
0.0311105,1,0,0
0.03111104,1,1,0
0.03111184,1,0,0
0.031112,1,1,0
0.03111234,1,0,0
0.03111244,1,1,0
0.0311128,1,0,0
0.03111286,1,1,0
0.03111318,1,0,0
0.03111334,1,1,0
0.03111368,1,0,0
0.03111386,1,1,0
0.03111436,1,0,0
0.03111452,1,1,0
0.03111484,1,0,0
0.03111502,1,1,0
0.0311152,1,0,0
0.03111534,1,1,0
0.03111554,1,0,0
0.03111702,1,1,0
0.0311172,1,0,0
0.03701566,1,1,0
0.0370162,1,0,0
0.03703416,1,1,0
0.03703484,1,0,0
0.03703582,1,1,0
0.03703604,1,0,0
0.0370369,1,1,0
0.03703752,1,0,0
0.03703816,1,1,0
0.03703866,1,0,0
0.03703948,1,1,0
0.0370397,1,0,0
0.03703982,1,1,0
0.03704002,1,0,0
0.0370409,1,1,0
0.03704142,1,0,0
0.03704152,1,1,0
0.03704186,1,0,0
0.03704214,1,1,0
0.03704266,1,0,0
0.03704284,1,1,0
0.03704302,1,0,0
0.03704352,1,1,0
0.03704416,1,0,0
0.03704426,1,1,0
0.03704434,1,0,0
0.03704448,1,1,0
0.0370446,1,0,0
0.037045,1,1,0
0.0370451,1,0,0
0.03704514,1,1,0
0.03704548,1,0,0
0.03704558,1,1,0
0.03704566,1,0,0
0.03704574,1,1,0
0.03704584,1,0,0
0.03704646,1,1,0
0.03704682,1,0,0
0.03704696,1,1,0
0.03704714,1,0,0
0.03704774,1,1,0
0.03704814,1,0,0
0.03704824,1,1,0
0.03704834,1,0,0
0.0370484,1,1,0
0.0370485,1,0,0
0.03704892,1,1,0
0.037049,1,0,0
0.03704912,1,1,0
0.03704946,1,0,0
0.0370495,1,1,0
0.03704966,1,0,0
0.03704974,1,1,0
0.03704982,1,0,0
0.03705,1,1,0
0.03705014,1,0,0
0.0370503,1,1,0
0.03705048,1,0,0
0.03705056,1,1,0
0.03705084,1,0,0
0.03705096,1,1,0
0.03705108,1,0,0
0.03705172,1,1,0
0.03705214,1,0,0
0.0370523,1,1,0
0.03705244,1,0,0
0.0370525,1,1,0
0.03705262,1,0,0
0.03705312,1,1,0
0.03705332,1,0,0
0.03705338,1,1,0
0.03705352,1,0,0
0.03705362,1,1,0
0.0370538,1,0,0
0.0370543,1,1,0
0.0370546,1,0,0
0.03705464,1,1,0
0.03705492,1,0,0
0.037055,1,1,0
0.03705512,1,0,0
0.0370553,1,1,0
0.03705546,1,0,0
0.03705562,1,1,0
0.0370558,1,0,0
0.0370559,1,1,0
0.037056,1,0,0
0.03705612,1,1,0
0.03705626,1,0,0
0.03705632,1,1,0
0.0370564,1,0,0
0.03705648,1,1,0
0.03705662,1,0,0
0.03705672,1,1,0
0.03705682,1,0,0
0.0370569,1,1,0
0.03705698,1,0,0
0.03705706,1,1,0
0.03705716,1,0,0
0.03705728,1,1,0
0.03705746,1,0,0
0.03705762,1,1,0
0.0370578,1,0,0
0.03705788,1,1,0
0.03705798,1,0,0
0.03705812,1,1,0
0.0370583,1,0,0
0.0370584,1,1,0
0.03705848,1,0,0
0.03705862,1,1,0
0.0370588,1,0,0
0.0370589,1,1,0
0.03705898,1,0,0
0.03705912,1,1,0
0.0370593,1,0,0
0.03705944,1,1,0
0.03705958,1,0,0
0.03705966,1,1,0
0.03705976,1,0,0
0.03705982,1,1,0
0.03705996,1,0,0
0.03706008,1,1,0
0.03706016,1,0,0
0.03706028,1,1,0
0.03706042,1,0,0
0.03706048,1,1,0
0.03706058,1,0,0
0.03706064,1,1,0
0.03706076,1,0,0
0.03706082,1,1,0
0.0370609,1,0,0
0.03706098,1,1,0
0.03706114,1,0,0
0.03706124,1,1,0
0.03706132,1,0,0
0.03706138,1,1,0
0.03706148,1,0,0
0.03706156,1,1,0
0.03706166,1,0,0
0.03706174,1,1,0
0.03706184,1,0,0
0.0370619,1,1,0
0.037062,1,0,0
0.03706212,1,1,0
0.03706226,1,0,0
0.03706232,1,1,0
0.03706248,1,0,0
0.03706262,1,1,0
0.0370628,1,0,0
0.03706296,1,1,0
0.03706314,1,0,0
0.03706322,1,1,0
0.03706332,1,0,0
0.03706346,1,1,0
0.03706358,1,0,0
0.03706364,1,1,0
0.0370638,1,0,0
0.0370639,1,1,0
0.03706398,1,0,0
0.03706412,1,1,0
0.03706424,1,0,0
0.03706432,1,1,0
0.0370644,1,0,0
0.03706446,1,1,0
0.03706456,1,0,0
0.03706464,1,1,0
0.0370648,1,0,0
0.03706496,1,1,0
0.03706508,1,0,0
0.03706512,1,1,0
0.0370653,1,0,0
0.03706544,1,1,0
0.03706562,1,0,0
0.03706578,1,1,0
0.03706596,1,0,0
0.03706608,0,0,0
0.03706612,0,1,0
0.03706624,0,0,0
0.0370663,0,1,0
0.0370664,0,0,0
0.03706646,0,1,0
0.03706662,0,0,0
0.03706678,0,1,0
0.0370669,0,0,0
0.03706696,0,1,0
0.03706706,0,0,0
0.03706712,0,1,0
0.03706724,0,0,0
0.0370673,0,1,0
0.0370674,0,0,0
0.03706748,0,1,0
0.03706762,0,0,0
0.03706772,0,1,0
0.0370678,0,0,0
0.03706794,0,1,0
0.03706806,0,0,0
0.03706814,0,1,0
0.03706828,0,0,0
0.03706844,0,1,0
0.03706862,0,0,0
0.0370687,0,1,0
0.0370688,0,0,0
0.03706894,0,1,0
0.03706904,0,0,0
0.03706912,0,1,0
0.03706922,0,0,0
0.03706928,0,1,0
0.03706944,0,0,0
0.0370696,0,1,0
0.03706976,0,0,0
0.03706992,0,1,0
0.0370701,0,0,0
0.0370702,0,1,0
0.03707028,0,0,0
0.03707042,0,1,0
0.0370706,0,0,0
0.03707076,0,1,0
0.03707094,0,0,0
0.03707104,0,1,0
0.03707112,0,0,0
0.03707126,0,1,0
0.03707144,0,0,0
0.03707154,0,1,0
0.03707162,0,0,0
0.03707176,0,1,0
0.03707186,0,0,0
0.03707194,0,1,0
0.03707202,0,0,0
0.03707212,0,1,0
0.03707226,0,0,0
0.03707236,0,1,0
0.03707244,0,0,0
0.03707252,0,1,0
0.03707262,0,0,0
0.03707276,0,1,0
0.03707294,0,0,0
0.0370731,0,1,0
0.0370732,0,0,0
0.03707328,0,1,0
0.03707336,0,0,0
0.03707344,0,1,0
0.03707352,0,0,0
0.0370736,0,1,0
0.0370737,0,0,0
0.03707378,0,1,0
0.03707394,0,0,0
0.0370741,0,1,0
0.03707428,0,0,0
0.03707444,0,1,0
0.0370746,0,0,0
0.03707478,0,1,0
0.03707486,0,0,0
0.03707494,0,1,0
0.0370751,0,0,0
0.03707528,0,1,0
0.03707544,0,0,0
0.0370756,0,1,0
0.0370757,0,0,0
0.03707578,0,1,0
0.03707594,0,0,0
0.0370761,0,1,0
0.03707628,0,0,0
0.03707644,0,1,0
0.0370766,0,0,0
0.03707676,0,1,0
0.03707694,0,0,0
0.03707704,0,1,0
0.03707712,0,0,0
0.0370772,0,1,0
0.03707728,0,0,0
0.03707736,0,1,0
0.03707744,0,0,0
0.0370776,0,1,0
0.03707776,0,0,0
0.03707792,0,1,0
0.03707808,0,0,0
0.03707826,0,1,0
0.03707842,0,0,0
0.03707852,0,1,0
0.03707862,0,0,0
0.0370787,0,1,0
0.0370788,0,0,0
0.03707886,0,1,0
0.03707896,0,0,0
0.0370791,0,1,0
0.03707922,0,0,0
0.0370793,0,1,0
0.03707938,0,0,0
0.03707946,0,1,0
0.03707956,0,0,0
0.03707962,0,1,0
0.03707978,0,0,0
0.03707988,0,1,0
0.03707998,0,0,0
0.03708004,0,1,0
0.03708014,0,0,0
0.03708028,0,1,0
0.0370804,0,0,0
0.03708046,0,1,0
0.03708056,0,0,0
0.03708064,0,1,0
0.03708072,0,0,0
0.0370808,0,1,0
0.0370809,0,0,0
0.03708098,0,1,0
0.03708112,0,0,0
0.03708122,0,1,0
0.03708132,0,0,0
0.03708144,0,1,0
0.03708158,0,0,0
0.03708164,0,1,0
0.03708174,0,0,0
0.0370818,0,1,0
0.03708196,0,0,0
0.03708212,0,1,0
